<Qucs Dataset 0.0.15>
<indep outvolts_tot_V 1>
  +1.58669984843e-05
</indep>
<indep Tsky_C 1>
  -2.63150000000e+02
</indep>
<indep Tsky_K 1>
  +1.00000000000e+01
</indep>
<indep acfrequency 151>
  +3.50000000000e+10
  +3.51000000000e+10
  +3.52000000000e+10
  +3.53000000000e+10
  +3.54000000000e+10
  +3.55000000000e+10
  +3.56000000000e+10
  +3.57000000000e+10
  +3.58000000000e+10
  +3.59000000000e+10
  +3.60000000000e+10
  +3.61000000000e+10
  +3.62000000000e+10
  +3.63000000000e+10
  +3.64000000000e+10
  +3.65000000000e+10
  +3.66000000000e+10
  +3.67000000000e+10
  +3.68000000000e+10
  +3.69000000000e+10
  +3.70000000000e+10
  +3.71000000000e+10
  +3.72000000000e+10
  +3.73000000000e+10
  +3.74000000000e+10
  +3.75000000000e+10
  +3.76000000000e+10
  +3.77000000000e+10
  +3.78000000000e+10
  +3.79000000000e+10
  +3.80000000000e+10
  +3.81000000000e+10
  +3.82000000000e+10
  +3.83000000000e+10
  +3.84000000000e+10
  +3.85000000000e+10
  +3.86000000000e+10
  +3.87000000000e+10
  +3.88000000000e+10
  +3.89000000000e+10
  +3.90000000000e+10
  +3.91000000000e+10
  +3.92000000000e+10
  +3.93000000000e+10
  +3.94000000000e+10
  +3.95000000000e+10
  +3.96000000000e+10
  +3.97000000000e+10
  +3.98000000000e+10
  +3.99000000000e+10
  +4.00000000000e+10
  +4.01000000000e+10
  +4.02000000000e+10
  +4.03000000000e+10
  +4.04000000000e+10
  +4.05000000000e+10
  +4.06000000000e+10
  +4.07000000000e+10
  +4.08000000000e+10
  +4.09000000000e+10
  +4.10000000000e+10
  +4.11000000000e+10
  +4.12000000000e+10
  +4.13000000000e+10
  +4.14000000000e+10
  +4.15000000000e+10
  +4.16000000000e+10
  +4.17000000000e+10
  +4.18000000000e+10
  +4.19000000000e+10
  +4.20000000000e+10
  +4.21000000000e+10
  +4.22000000000e+10
  +4.23000000000e+10
  +4.24000000000e+10
  +4.25000000000e+10
  +4.26000000000e+10
  +4.27000000000e+10
  +4.28000000000e+10
  +4.29000000000e+10
  +4.30000000000e+10
  +4.31000000000e+10
  +4.32000000000e+10
  +4.33000000000e+10
  +4.34000000000e+10
  +4.35000000000e+10
  +4.36000000000e+10
  +4.37000000000e+10
  +4.38000000000e+10
  +4.39000000000e+10
  +4.40000000000e+10
  +4.41000000000e+10
  +4.42000000000e+10
  +4.43000000000e+10
  +4.44000000000e+10
  +4.45000000000e+10
  +4.46000000000e+10
  +4.47000000000e+10
  +4.48000000000e+10
  +4.49000000000e+10
  +4.50000000000e+10
  +4.51000000000e+10
  +4.52000000000e+10
  +4.53000000000e+10
  +4.54000000000e+10
  +4.55000000000e+10
  +4.56000000000e+10
  +4.57000000000e+10
  +4.58000000000e+10
  +4.59000000000e+10
  +4.60000000000e+10
  +4.61000000000e+10
  +4.62000000000e+10
  +4.63000000000e+10
  +4.64000000000e+10
  +4.65000000000e+10
  +4.66000000000e+10
  +4.67000000000e+10
  +4.68000000000e+10
  +4.69000000000e+10
  +4.70000000000e+10
  +4.71000000000e+10
  +4.72000000000e+10
  +4.73000000000e+10
  +4.74000000000e+10
  +4.75000000000e+10
  +4.76000000000e+10
  +4.77000000000e+10
  +4.78000000000e+10
  +4.79000000000e+10
  +4.80000000000e+10
  +4.81000000000e+10
  +4.82000000000e+10
  +4.83000000000e+10
  +4.84000000000e+10
  +4.85000000000e+10
  +4.86000000000e+10
  +4.87000000000e+10
  +4.88000000000e+10
  +4.89000000000e+10
  +4.90000000000e+10
  +4.91000000000e+10
  +4.92000000000e+10
  +4.93000000000e+10
  +4.94000000000e+10
  +4.95000000000e+10
  +4.96000000000e+10
  +4.97000000000e+10
  +4.98000000000e+10
  +4.99000000000e+10
  +5.00000000000e+10
</indep>
<indep frequency 151>
  +3.50000000000e+10
  +3.51000000000e+10
  +3.52000000000e+10
  +3.53000000000e+10
  +3.54000000000e+10
  +3.55000000000e+10
  +3.56000000000e+10
  +3.57000000000e+10
  +3.58000000000e+10
  +3.59000000000e+10
  +3.60000000000e+10
  +3.61000000000e+10
  +3.62000000000e+10
  +3.63000000000e+10
  +3.64000000000e+10
  +3.65000000000e+10
  +3.66000000000e+10
  +3.67000000000e+10
  +3.68000000000e+10
  +3.69000000000e+10
  +3.70000000000e+10
  +3.71000000000e+10
  +3.72000000000e+10
  +3.73000000000e+10
  +3.74000000000e+10
  +3.75000000000e+10
  +3.76000000000e+10
  +3.77000000000e+10
  +3.78000000000e+10
  +3.79000000000e+10
  +3.80000000000e+10
  +3.81000000000e+10
  +3.82000000000e+10
  +3.83000000000e+10
  +3.84000000000e+10
  +3.85000000000e+10
  +3.86000000000e+10
  +3.87000000000e+10
  +3.88000000000e+10
  +3.89000000000e+10
  +3.90000000000e+10
  +3.91000000000e+10
  +3.92000000000e+10
  +3.93000000000e+10
  +3.94000000000e+10
  +3.95000000000e+10
  +3.96000000000e+10
  +3.97000000000e+10
  +3.98000000000e+10
  +3.99000000000e+10
  +4.00000000000e+10
  +4.01000000000e+10
  +4.02000000000e+10
  +4.03000000000e+10
  +4.04000000000e+10
  +4.05000000000e+10
  +4.06000000000e+10
  +4.07000000000e+10
  +4.08000000000e+10
  +4.09000000000e+10
  +4.10000000000e+10
  +4.11000000000e+10
  +4.12000000000e+10
  +4.13000000000e+10
  +4.14000000000e+10
  +4.15000000000e+10
  +4.16000000000e+10
  +4.17000000000e+10
  +4.18000000000e+10
  +4.19000000000e+10
  +4.20000000000e+10
  +4.21000000000e+10
  +4.22000000000e+10
  +4.23000000000e+10
  +4.24000000000e+10
  +4.25000000000e+10
  +4.26000000000e+10
  +4.27000000000e+10
  +4.28000000000e+10
  +4.29000000000e+10
  +4.30000000000e+10
  +4.31000000000e+10
  +4.32000000000e+10
  +4.33000000000e+10
  +4.34000000000e+10
  +4.35000000000e+10
  +4.36000000000e+10
  +4.37000000000e+10
  +4.38000000000e+10
  +4.39000000000e+10
  +4.40000000000e+10
  +4.41000000000e+10
  +4.42000000000e+10
  +4.43000000000e+10
  +4.44000000000e+10
  +4.45000000000e+10
  +4.46000000000e+10
  +4.47000000000e+10
  +4.48000000000e+10
  +4.49000000000e+10
  +4.50000000000e+10
  +4.51000000000e+10
  +4.52000000000e+10
  +4.53000000000e+10
  +4.54000000000e+10
  +4.55000000000e+10
  +4.56000000000e+10
  +4.57000000000e+10
  +4.58000000000e+10
  +4.59000000000e+10
  +4.60000000000e+10
  +4.61000000000e+10
  +4.62000000000e+10
  +4.63000000000e+10
  +4.64000000000e+10
  +4.65000000000e+10
  +4.66000000000e+10
  +4.67000000000e+10
  +4.68000000000e+10
  +4.69000000000e+10
  +4.70000000000e+10
  +4.71000000000e+10
  +4.72000000000e+10
  +4.73000000000e+10
  +4.74000000000e+10
  +4.75000000000e+10
  +4.76000000000e+10
  +4.77000000000e+10
  +4.78000000000e+10
  +4.79000000000e+10
  +4.80000000000e+10
  +4.81000000000e+10
  +4.82000000000e+10
  +4.83000000000e+10
  +4.84000000000e+10
  +4.85000000000e+10
  +4.86000000000e+10
  +4.87000000000e+10
  +4.88000000000e+10
  +4.89000000000e+10
  +4.90000000000e+10
  +4.91000000000e+10
  +4.92000000000e+10
  +4.93000000000e+10
  +4.94000000000e+10
  +4.95000000000e+10
  +4.96000000000e+10
  +4.97000000000e+10
  +4.98000000000e+10
  +4.99000000000e+10
  +5.00000000000e+10
</indep>
<dep outvolts_log acfrequency>
  -8.08793044589e+01
  -8.09095864185e+01
  -8.08588634268e+01
  -8.08884076898e+01
  -8.08415336971e+01
  -8.08507465721e+01
  -8.07867402495e+01
  -8.07864033406e+01
  -8.07211723905e+01
  -8.07092988306e+01
  -8.06427188662e+01
  -8.06174025519e+01
  -8.05490863170e+01
  -8.05085556457e+01
  -8.04378688330e+01
  -8.03805496049e+01
  -8.03066486850e+01
  -7.95161593080e+01
  -7.82870697877e+01
  -7.66847067462e+01
  -7.48832509821e+01
  -7.29520062770e+01
  -7.00143428758e+01
  -6.80072297015e+01
  -6.70380987601e+01
  -6.78614872618e+01
  -6.78956823484e+01
  -6.78698236635e+01
  -6.79083644637e+01
  -6.78786971491e+01
  -6.79204733871e+01
  -6.78881609921e+01
  -6.79319688936e+01
  -6.69001698987e+01
  -6.69447593627e+01
  -6.69109059537e+01
  -6.69549987168e+01
  -6.69222684603e+01
  -6.69646218440e+01
  -6.69342273960e+01
  -6.69736664963e+01
  -6.75135441537e+01
  -6.75489952137e+01
  -6.75265228753e+01
  -6.75570582728e+01
  -6.75398990628e+01
  -6.75647544354e+01
  -6.85509634544e+01
  -6.85695553843e+01
  -6.85648252429e+01
  -6.85767957451e+01
  -6.85787786549e+01
  -6.85839769999e+01
  -6.85927137516e+01
  -6.85912086124e+01
  -6.86065225585e+01
  -6.85985976595e+01
  -6.86201024784e+01
  -6.86062453491e+01
  -6.86333594398e+01
  -6.86142437065e+01
  -6.86462106995e+01
  -6.86226725500e+01
  -6.86585872289e+01
  -6.86315968702e+01
  -6.86704356339e+01
  -6.86410647172e+01
  -6.86817195716e+01
  -6.86511056785e+01
  -6.86924206413e+01
  -6.86617300121e+01
  -6.87025387396e+01
  -6.86729284646e+01
  -6.87120918797e+01
  -6.86846727815e+01
  -6.87211154860e+01
  -6.86969168787e+01
  -6.87296611854e+01
  -6.87095986232e+01
  -6.87377951250e+01
  -6.87226421397e+01
  -6.87455958587e+01
  -6.87359605455e+01
  -6.87531518558e+01
  -6.87494589989e+01
  -6.87605586947e+01
  -6.87630379432e+01
  -6.87679160205e+01
  -6.87765964243e+01
  -6.87753243524e+01
  -6.87900353689e+01
  -6.87828818410e+01
  -6.88032607156e+01
  -6.87906810800e+01
  -6.88161863081e+01
  -6.87988060816e+01
  -6.88287364702e+01
  -6.88073295266e+01
  -6.88408481990e+01
  -6.88163103901e+01
  -6.88524729289e+01
  -6.88257920364e+01
  -6.88635778298e+01
  -6.88358008575e+01
  -6.88741466176e+01
  -6.88463455092e+01
  -6.88841798680e+01
  -6.88574167726e+01
  -6.88936948323e+01
  -6.88689880437e+01
  -6.89027247659e+01
  -6.88810164249e+01
  -6.89113177907e+01
  -6.88934443680e+01
  -6.89195353194e+01
  -6.89062017959e+01
  -6.89274500844e+01
  -6.89192086123e+01
  -6.89351438199e+01
  -6.89323774985e+01
  -6.89427046600e+01
  -6.89456168878e+01
  -6.94478969406e+01
  -6.97051155252e+01
  -6.97040656319e+01
  -6.97181965125e+01
  -7.04564658837e+01
  -7.19577858963e+01
  -7.34107673753e+01
  -7.48651387401e+01
  -7.62164042896e+01
  -7.62436301117e+01
  -7.62235003056e+01
  -7.62539755879e+01
  -7.62310121620e+01
  -7.62638677770e+01
  -7.62389788522e+01
  -7.62732771307e+01
  -7.62474238033e+01
  -7.62821893168e+01
  -7.62563542063e+01
  -7.62906054919e+01
  -7.62657609163e+01
  -7.62985421144e+01
  -7.62756189214e+01
  -7.63060303066e+01
  -7.62858883581e+01
  -7.63131147872e+01
  -7.62965160265e+01
  -7.63198524003e+01
  -7.63074373378e+01
</dep>
<dep s21db frequency>
  +2.12827435335e+01
  +2.16873286950e+01
  +2.22596670112e+01
  +2.26679300311e+01
  +2.32352863000e+01
  +2.36497963934e+01
  +2.42097080638e+01
  +2.46328087291e+01
  +2.51830775890e+01
  +2.56168132800e+01
  +2.61555733019e+01
  +2.66016264376e+01
  +2.71274002471e+01
  +2.75870405051e+01
  +2.80987828083e+01
  +2.85728302251e+01
  +2.90699569662e+01
  +3.30587599050e+01
  +3.70411623864e+01
  +4.10445909376e+01
  +4.50126346160e+01
  +4.90300894930e+01
  +5.49845976424e+01
  +5.90150341296e+01
  +6.09572570314e+01
  +6.09992230636e+01
  +6.09307938281e+01
  +6.09824808270e+01
  +6.09053593639e+01
  +6.09646640602e+01
  +6.08810710776e+01
  +6.09456662061e+01
  +6.08580094254e+01
  +6.29254209134e+01
  +6.28362159256e+01
  +6.29039040083e+01
  +6.28156923588e+01
  +6.28811339562e+01
  +6.27964011198e+01
  +6.28571708028e+01
  +6.27782667002e+01
  +6.28321136522e+01
  +6.27611782574e+01
  +6.28060968037e+01
  +6.27449932070e+01
  +6.27792847258e+01
  +6.27295417532e+01
  +6.07518660893e+01
  +6.07146322476e+01
  +6.07240471097e+01
  +6.07000572421e+01
  +6.06960444647e+01
  +6.06856000725e+01
  +6.06680780520e+01
  +6.06710417872e+01
  +6.06403638401e+01
  +6.06561682090e+01
  +6.06131070436e+01
  +6.06407768991e+01
  +6.05864958235e+01
  +6.06246837858e+01
  +6.05606956827e+01
  +6.06077292132e+01
  +6.05358446922e+01
  +6.05897831837e+01
  +6.05120496512e+01
  +6.05707495842e+01
  +6.04893832531e+01
  +6.05505692299e+01
  +6.04678823028e+01
  +6.05292215995e+01
  +6.04475470072e+01
  +6.05067251973e+01
  +6.04283413358e+01
  +6.04831365350e+01
  +6.04101944318e+01
  +6.04585477863e+01
  +6.03930030297e+01
  +6.04330832270e+01
  +6.03766348203e+01
  +6.04068946202e+01
  +6.03609326775e+01
  +6.03801557468e+01
  +6.03457196425e+01
  +6.03530563075e+01
  +6.03308045359e+01
  +6.03257954348e+01
  +6.03159880444e+01
  +6.02985750566e+01
  +6.03010691052e+01
  +6.02715933397e+01
  +6.02858513933e+01
  +6.02450384261e+01
  +6.02701496988e+01
  +6.02190826465e+01
  +6.02537959755e+01
  +6.01938773698e+01
  +6.02366448429e+01
  +6.01695486152e+01
  +6.02185783346e+01
  +6.01461935244e+01
  +6.01995097088e+01
  +6.01238777653e+01
  +6.01793861719e+01
  +6.01026339092e+01
  +6.01581904069e+01
  +6.00824608044e+01
  +6.01359408496e+01
  +6.00633239440e+01
  +6.01126907103e+01
  +6.00451568087e+01
  +6.00885257901e+01
  +6.00278631431e+01
  +6.00635611947e+01
  +6.00113201062e+01
  +6.00379370912e+01
  +5.99953822148e+01
  +6.00118136876e+01
  +5.99798859801e+01
  +5.99853656386e+01
  +5.99646551113e+01
  +5.99587760966e+01
  +5.89495061433e+01
  +5.84322306226e+01
  +5.84342543229e+01
  +5.84059111695e+01
  +5.69187195704e+01
  +5.38799903288e+01
  +5.09027323237e+01
  +4.78546260138e+01
  +4.48861390620e+01
  +4.48299567254e+01
  +4.48688073149e+01
  +4.48060975190e+01
  +4.48506299671e+01
  +4.47831367654e+01
  +4.48315286978e+01
  +4.47611337731e+01
  +4.48114564201e+01
  +4.47401173139e+01
  +4.47903986263e+01
  +4.47200850722e+01
  +4.47683735916e+01
  +4.47010040190e+01
  +4.47454314343e+01
  +4.46828116889e+01
  +4.47216520807e+01
  +4.46654183233e+01
  +4.46971422278e+01
  +4.46487098199e+01
  +4.46720314362e+01
</dep>
<dep Freq_GHz acfrequency>
  +3.50000000000e+01
  +3.51000000000e+01
  +3.52000000000e+01
  +3.53000000000e+01
  +3.54000000000e+01
  +3.55000000000e+01
  +3.56000000000e+01
  +3.57000000000e+01
  +3.58000000000e+01
  +3.59000000000e+01
  +3.60000000000e+01
  +3.61000000000e+01
  +3.62000000000e+01
  +3.63000000000e+01
  +3.64000000000e+01
  +3.65000000000e+01
  +3.66000000000e+01
  +3.67000000000e+01
  +3.68000000000e+01
  +3.69000000000e+01
  +3.70000000000e+01
  +3.71000000000e+01
  +3.72000000000e+01
  +3.73000000000e+01
  +3.74000000000e+01
  +3.75000000000e+01
  +3.76000000000e+01
  +3.77000000000e+01
  +3.78000000000e+01
  +3.79000000000e+01
  +3.80000000000e+01
  +3.81000000000e+01
  +3.82000000000e+01
  +3.83000000000e+01
  +3.84000000000e+01
  +3.85000000000e+01
  +3.86000000000e+01
  +3.87000000000e+01
  +3.88000000000e+01
  +3.89000000000e+01
  +3.90000000000e+01
  +3.91000000000e+01
  +3.92000000000e+01
  +3.93000000000e+01
  +3.94000000000e+01
  +3.95000000000e+01
  +3.96000000000e+01
  +3.97000000000e+01
  +3.98000000000e+01
  +3.99000000000e+01
  +4.00000000000e+01
  +4.01000000000e+01
  +4.02000000000e+01
  +4.03000000000e+01
  +4.04000000000e+01
  +4.05000000000e+01
  +4.06000000000e+01
  +4.07000000000e+01
  +4.08000000000e+01
  +4.09000000000e+01
  +4.10000000000e+01
  +4.11000000000e+01
  +4.12000000000e+01
  +4.13000000000e+01
  +4.14000000000e+01
  +4.15000000000e+01
  +4.16000000000e+01
  +4.17000000000e+01
  +4.18000000000e+01
  +4.19000000000e+01
  +4.20000000000e+01
  +4.21000000000e+01
  +4.22000000000e+01
  +4.23000000000e+01
  +4.24000000000e+01
  +4.25000000000e+01
  +4.26000000000e+01
  +4.27000000000e+01
  +4.28000000000e+01
  +4.29000000000e+01
  +4.30000000000e+01
  +4.31000000000e+01
  +4.32000000000e+01
  +4.33000000000e+01
  +4.34000000000e+01
  +4.35000000000e+01
  +4.36000000000e+01
  +4.37000000000e+01
  +4.38000000000e+01
  +4.39000000000e+01
  +4.40000000000e+01
  +4.41000000000e+01
  +4.42000000000e+01
  +4.43000000000e+01
  +4.44000000000e+01
  +4.45000000000e+01
  +4.46000000000e+01
  +4.47000000000e+01
  +4.48000000000e+01
  +4.49000000000e+01
  +4.50000000000e+01
  +4.51000000000e+01
  +4.52000000000e+01
  +4.53000000000e+01
  +4.54000000000e+01
  +4.55000000000e+01
  +4.56000000000e+01
  +4.57000000000e+01
  +4.58000000000e+01
  +4.59000000000e+01
  +4.60000000000e+01
  +4.61000000000e+01
  +4.62000000000e+01
  +4.63000000000e+01
  +4.64000000000e+01
  +4.65000000000e+01
  +4.66000000000e+01
  +4.67000000000e+01
  +4.68000000000e+01
  +4.69000000000e+01
  +4.70000000000e+01
  +4.71000000000e+01
  +4.72000000000e+01
  +4.73000000000e+01
  +4.74000000000e+01
  +4.75000000000e+01
  +4.76000000000e+01
  +4.77000000000e+01
  +4.78000000000e+01
  +4.79000000000e+01
  +4.80000000000e+01
  +4.81000000000e+01
  +4.82000000000e+01
  +4.83000000000e+01
  +4.84000000000e+01
  +4.85000000000e+01
  +4.86000000000e+01
  +4.87000000000e+01
  +4.88000000000e+01
  +4.89000000000e+01
  +4.90000000000e+01
  +4.91000000000e+01
  +4.92000000000e+01
  +4.93000000000e+01
  +4.94000000000e+01
  +4.95000000000e+01
  +4.96000000000e+01
  +4.97000000000e+01
  +4.98000000000e+01
  +4.99000000000e+01
  +5.00000000000e+01
</dep>
<dep fem_in.vn acfrequency>
  +nan
  +nan
  +nan
  +nan
  +nan
  +nan
  +nan
  +nan
  +nan
  +nan
  +nan
  +nan
  +nan
  +nan
  +nan
  +nan
  +nan
  +nan
  +nan
  +nan
  +nan
  +nan
  +nan
  +nan
  +nan
  +5.46514534794e-11
  +5.46514534794e-11
  +5.46514534794e-11
  +5.46514534794e-11
  +5.46514534794e-11
  +5.46514534794e-11
  +5.46514534794e-11
  +5.46514534794e-11
  +5.46514534794e-11
  +5.46514534794e-11
  +5.46514534794e-11
  +5.46514534794e-11
  +5.46514534794e-11
  +5.46514534794e-11
  +5.46514534794e-11
  +5.46514534794e-11
  +8.30385915317e-11
  +8.30385915317e-11
  +8.30385915317e-11
  +8.30385915317e-11
  +8.30385915317e-11
  +8.30385915317e-11
  +8.30385915317e-11
  +8.30385915317e-11
  +8.30385915317e-11
  +8.30385915317e-11
  +8.30385915317e-11
  +8.30385915317e-11
  +8.30385915317e-11
  +8.30385915317e-11
  +8.30385915317e-11
  +8.30385915317e-11
  +8.30385915317e-11
  +8.30385915317e-11
  +8.30385915317e-11
  +8.30385915317e-11
  +8.30385915317e-11
  +8.30385915317e-11
  +8.30385915317e-11
  +8.30385915317e-11
  +8.30385915317e-11
  +8.30385915317e-11
  +8.30385915317e-11
  +8.30385915317e-11
  +8.30385915317e-11
  +8.30385915317e-11
  +8.30385915317e-11
  +8.30385915317e-11
  +8.30385915317e-11
  +8.30385915317e-11
  +8.30385915317e-11
  +8.30385915317e-11
  +8.30385915317e-11
  +8.30385915317e-11
  +8.30385915317e-11
  +8.30385915317e-11
  +8.30385915317e-11
  +8.30385915317e-11
  +8.30385915317e-11
  +8.30385915317e-11
  +8.30385915317e-11
  +8.30385915317e-11
  +8.30385915317e-11
  +8.30385915317e-11
  +8.30385915317e-11
  +8.30385915317e-11
  +8.30385915317e-11
  +8.30385915317e-11
  +8.30385915317e-11
  +8.30385915317e-11
  +8.30385915317e-11
  +8.30385915317e-11
  +8.30385915317e-11
  +8.30385915317e-11
  +8.30385915317e-11
  +8.30385915317e-11
  +8.30385915317e-11
  +8.30385915317e-11
  +8.30385915317e-11
  +8.30385915317e-11
  +8.30385915317e-11
  +8.30385915317e-11
  +8.30385915317e-11
  +8.30385915317e-11
  +8.30385915317e-11
  +8.30385915317e-11
  +8.30385915317e-11
  +8.30385915317e-11
  +8.30385915317e-11
  +8.30385915317e-11
  +8.30385915317e-11
  +8.30385915317e-11
  +8.30385915317e-11
  +8.30385915317e-11
  +8.30385915317e-11
  +8.30385915317e-11
  +8.30385915317e-11
  +8.30385915317e-11
  +8.30385915317e-11
  +8.30385915317e-11
  +8.30385915317e-11
  +8.30385915317e-11
  +8.30385915317e-11
  +8.30385915317e-11
  +8.30385915317e-11
  +8.30385915317e-11
  +8.30385915317e-11
  +8.30385915317e-11
  +8.30385915317e-11
  +8.30385915317e-11
  +8.30385915317e-11
  +8.30385915317e-11
  +8.30385915317e-11
  +8.30385915317e-11
  +8.30385915317e-11
  +8.30385915317e-11
  +8.30385915317e-11
  +8.30385915317e-11
  +8.30385915317e-11
  +8.30385915317e-11
  +8.30385915317e-11
  +8.30385915317e-11
  +8.30385915317e-11
  +8.30385915317e-11
  +8.30385915317e-11
  +8.30385915317e-11
</dep>
<dep _net0.vn acfrequency>
  +5.65258163904e-10
  +5.60348792926e-10
  +5.69185877566e-10
  +5.64249972217e-10
  +5.72562890326e-10
  +5.71261446570e-10
  +5.83265729800e-10
  +5.83429297099e-10
  +5.96223900861e-10
  +5.98325201852e-10
  +6.11912818935e-10
  +6.16500596151e-10
  +6.30881286744e-10
  +6.38588950093e-10
  +6.53755738766e-10
  +6.65306272313e-10
  +6.81243453288e-10
  +8.59114052928e-10
  +1.19160286165e-09
  +1.78016177427e-09
  +2.72379228874e-09
  +4.30999396877e-09
  +8.44384722195e-09
  +1.35654608492e-08
  +1.67863540920e-08
  +1.40822391966e-08
  +1.37929585953e-08
  +1.41054330009e-08
  +1.37725760810e-08
  +1.41231907718e-08
  +1.37578885752e-08
  +1.41349889360e-08
  +1.37493084602e-08
  +1.77970540997e-08
  +1.73016720546e-08
  +1.77959244611e-08
  +1.73067892084e-08
  +1.77868503224e-08
  +1.73196381977e-08
  +1.77702051303e-08
  +1.73397348944e-08
  +1.55737677710e-08
  +1.52401524378e-08
  +1.55476957318e-08
